<Qucs Dataset 0.0.16>
<indep acfrequency 100>
  +1.00000000000e+00
  +1.51516141414e+05
  +3.03031282828e+05
  +4.54546424242e+05
  +6.06061565657e+05
  +7.57576707071e+05
  +9.09091848485e+05
  +1.06060698990e+06
  +1.21212213131e+06
  +1.36363727273e+06
  +1.51515241414e+06
  +1.66666755556e+06
  +1.81818269697e+06
  +1.96969783838e+06
  +2.12121297980e+06
  +2.27272812121e+06
  +2.42424326263e+06
  +2.57575840404e+06
  +2.72727354545e+06
  +2.87878868687e+06
  +3.03030382828e+06
  +3.18181896970e+06
  +3.33333411111e+06
  +3.48484925253e+06
  +3.63636439394e+06
  +3.78787953535e+06
  +3.93939467677e+06
  +4.09090981818e+06
  +4.24242495960e+06
  +4.39394010101e+06
  +4.54545524242e+06
  +4.69697038384e+06
  +4.84848552525e+06
  +5.00000066667e+06
  +5.15151580808e+06
  +5.30303094949e+06
  +5.45454609091e+06
  +5.60606123232e+06
  +5.75757637374e+06
  +5.90909151515e+06
  +6.06060665657e+06
  +6.21212179798e+06
  +6.36363693939e+06
  +6.51515208081e+06
  +6.66666722222e+06
  +6.81818236364e+06
  +6.96969750505e+06
  +7.12121264646e+06
  +7.27272778788e+06
  +7.42424292929e+06
  +7.57575807071e+06
  +7.72727321212e+06
  +7.87878835354e+06
  +8.03030349495e+06
  +8.18181863636e+06
  +8.33333377778e+06
  +8.48484891919e+06
  +8.63636406061e+06
  +8.78787920202e+06
  +8.93939434343e+06
  +9.09090948485e+06
  +9.24242462626e+06
  +9.39393976768e+06
  +9.54545490909e+06
  +9.69697005051e+06
  +9.84848519192e+06
  +1.00000003333e+07
  +1.01515154747e+07
  +1.03030306162e+07
  +1.04545457576e+07
  +1.06060608990e+07
  +1.07575760404e+07
  +1.09090911818e+07
  +1.10606063232e+07
  +1.12121214646e+07
  +1.13636366061e+07
  +1.15151517475e+07
  +1.16666668889e+07
  +1.18181820303e+07
  +1.19696971717e+07
  +1.21212123131e+07
  +1.22727274545e+07
  +1.24242425960e+07
  +1.25757577374e+07
  +1.27272728788e+07
  +1.28787880202e+07
  +1.30303031616e+07
  +1.31818183030e+07
  +1.33333334444e+07
  +1.34848485859e+07
  +1.36363637273e+07
  +1.37878788687e+07
  +1.39393940101e+07
  +1.40909091515e+07
  +1.42424242929e+07
  +1.43939394343e+07
  +1.45454545758e+07
  +1.46969697172e+07
  +1.48484848586e+07
  +1.50000000000e+07
</indep>
<dep V1.i acfrequency>
  -2.28260633271e-03-j1.74450746112e-09
  -2.30807587630e-03-j2.61843615199e-04
  -2.38169757676e-03-j5.09363175381e-04
  -2.49584150841e-03-j7.30735708682e-04
  -2.63988507911e-03-j9.18269513979e-04
  -2.80241106642e-03-j1.06879237012e-03
  -2.97301544088e-03-j1.18298292538e-03
  -3.14335774611e-03-j1.26416274436e-03
  -3.30747526823e-03-j1.31704822242e-03
  -3.46159396035e-03-j1.34675969907e-03
  -3.60369736790e-03-j1.35817631023e-03
  -3.73304551022e-03-j1.35559596787e-03
  -3.84974849579e-03-j1.34261224126e-03
  -3.95443356344e-03-j1.32212194603e-03
  -4.04800638050e-03-j1.29639869692e-03
  -4.13149102470e-03-j1.26719096796e-03
  -4.20592916140e-03-j1.23582141569e-03
  -4.27232079876e-03-j1.20327629136e-03
  -4.33159276931e-03-j1.17028088501e-03
  -4.38458488215e-03-j1.13736070652e-03
  -4.43204682407e-03-j1.10488983774e-03
  -4.47464123060e-03-j1.07312849018e-03
  -4.51294999819e-03-j1.04225183440e-03
  -4.54748202593e-03-j1.01237194757e-03
  -4.57868130782e-03-j9.83554424356e-04
  -4.60693476608e-03-j9.55830894751e-04
  -4.63257950907e-03-j9.29208425556e-04
  -4.65590937523e-03-j9.03676560872e-04
  -4.67718072955e-03-j8.79212579427e-04
  -4.69661753721e-03-j8.55785407929e-04
  -4.71441576912e-03-j8.33358522818e-04
  -4.73074720709e-03-j8.11892091274e-04
  -4.74576271920e-03-j7.91344540566e-04
  -4.75959507335e-03-j7.71673698202e-04
  -4.77236135162e-03-j7.52837610176e-04
  -4.78416502156e-03-j7.34795118163e-04
  -4.79509771370e-03-j7.17506256617e-04
  -4.80524074807e-03-j7.00932515747e-04
  -4.81466644663e-03-j6.85037005031e-04
  -4.82343926305e-03-j6.69784543450e-04
  -4.83161675685e-03-j6.55141696160e-04
  -4.83925043462e-03-j6.41076772489e-04
  -4.84638647785e-03-j6.27559796449e-04
  -4.85306637374e-03-j6.14562458172e-04
  -4.85932746295e-03-j6.02058052566e-04
  -4.86520341622e-03-j5.90021409891e-04
  -4.87072464980e-03-j5.78428821720e-04
  -4.87591868831e-03-j5.67257964857e-04
  -4.88081048232e-03-j5.56487825052e-04
  -4.88542268673e-03-j5.46098621852e-04
  -4.88977590540e-03-j5.36071735516e-04
  -4.89388890642e-03-j5.26389636614e-04
  -4.89777881193e-03-j5.17035818715e-04
  -4.90146126579e-03-j5.07994734414e-04
  -4.90495058200e-03-j4.99251734777e-04
  -4.90825987630e-03-j4.90793012263e-04
  -4.91140118293e-03-j4.82605547044e-04
  -4.91438555868e-03-j4.74677056658e-04
  -4.91722317541e-03-j4.66995948864e-04
  -4.91992340281e-03-j4.59551277549e-04
  -4.92249488225e-03-j4.52332701549e-04
  -4.92494559298e-03-j4.45330446219e-04
  -4.92728291147e-03-j4.38535267582e-04
  -4.92951366469e-03-j4.31938418911e-04
  -4.93164417806e-03-j4.25531619581e-04
  -4.93368031861e-03-j4.19307026044e-04
  -4.93562753391e-03-j4.13257204781e-04
  -4.93749088728e-03-j4.07375107100e-04
  -4.93927508954e-03-j4.01654045649e-04
  -4.94098452786e-03-j3.96087672523e-04
  -4.94262329185e-03-j3.90669958855e-04
  -4.94419519728e-03-j3.85395175778e-04
  -4.94570380764e-03-j3.80257876675e-04
  -4.94715245374e-03-j3.75252880604e-04
  -4.94854425157e-03-j3.70375256830e-04
  -4.94988211865e-03-j3.65620310383e-04
  -4.95116878885e-03-j3.60983568557e-04
  -4.95240682603e-03-j3.56460768293e-04
  -4.95359863652e-03-j3.52047844386e-04
  -4.95474648047e-03-j3.47740918445e-04
  -4.95585248236e-03-j3.43536288560e-04
  -4.95691864057e-03-j3.39430419630e-04
  -4.95794683623e-03-j3.35419934295e-04
  -4.95893884135e-03-j3.31501604441e-04
  -4.95989632622e-03-j3.27672343231e-04
  -4.96082086638e-03-j3.23929197626e-04
  -4.96171394893e-03-j3.20269341365e-04
  -4.96257697838e-03-j3.16690068373e-04
  -4.96341128210e-03-j3.13188786565e-04
  -4.96421811530e-03-j3.09763012018e-04
  -4.96499866567e-03-j3.06410363494e-04
  -4.96575405767e-03-j3.03128557282e-04
  -4.96648535654e-03-j2.99915402344e-04
  -4.96719357194e-03-j2.96768795735e-04
  -4.96787966142e-03-j2.93686718298e-04
  -4.96854453356e-03-j2.90667230598e-04
  -4.96918905098e-03-j2.87708469082e-04
  -4.96981403305e-03-j2.84808642466e-04
  -4.97042025850e-03-j2.81966028310e-04
  -4.97100846776e-03-j2.79178969794e-04
</dep>
<dep out2.v acfrequency>
  -2.17390841211e+00+j1.39560178209e-06
  -2.15353283836e+00+j2.09474263736e-01
  -2.09463565468e+00+j4.07489317837e-01
  -2.00332078331e+00+j5.84586813186e-01
  -1.88808627245e+00+j7.34613407343e-01
  -1.75806587267e+00+j8.55031331000e-01
  -1.62158278255e+00+j9.46383501152e-01
  -1.48530934718e+00+j1.01132716150e+00
  -1.35401572337e+00+j1.05363541703e+00
  -1.23072113956e+00+j1.07740452704e+00
  -1.11703875457e+00+j1.08653778857e+00
  -1.01356055114e+00+j1.08447352087e+00
  -9.20198442770e-01+j1.07408657075e+00
  -8.36450639893e-01+j1.05769438374e+00
  -7.61592610825e-01+j1.03711584619e+00
  -6.94805095821e-01+j1.01374973312e+00
  -6.35254765118e-01+j9.88654166591e-01
  -5.82141614568e-01+j9.62618145235e-01
  -5.34724180379e-01+j9.36221899339e-01
  -4.92330617290e-01+j9.09885835555e-01
  -4.54361177657e-01+j8.83909218462e-01
  -4.20285754665e-01+j8.58500216646e-01
  -3.89638832535e-01+j8.33798966126e-01
  -3.62013293218e-01+j8.09895128369e-01
  -3.37053942586e-01+j7.86841178961e-01
  -3.14451243779e-01+j7.64662421814e-01
  -2.93935510935e-01+j7.43364510351e-01
  -2.75271674001e-01+j7.22939079880e-01
  -2.58254641594e-01+j7.03367953437e-01
  -2.42705242116e-01+j6.84626272464e-01
  -2.28466699307e-01+j6.66684818200e-01
  -2.15401588126e-01+j6.49511724484e-01
  -2.03389214471e-01+j6.33073733231e-01
  -1.92323364346e-01+j6.17337106550e-01
  -1.82110372371e-01+j6.02268281336e-01
  -1.72667464750e-01+j5.87834331027e-01
  -1.63921337279e-01+j5.74003283284e-01
  -1.55806934124e-01+j5.60744330364e-01
  -1.48266397898e-01+j5.48027959941e-01
  -1.41248165814e-01+j5.35826027282e-01
  -1.34706190404e-01+j5.24111784593e-01
  -1.28599266510e-01+j5.12859879412e-01
  -1.22890449051e-01+j5.02046331020e-01
  -1.17546548371e-01+j4.91648491592e-01
  -1.12537692026e-01+j4.81644997118e-01
  -1.07836943511e-01+j4.72015711866e-01
  -1.03419969899e-01+j4.62741669151e-01
  -9.92647515542e-02+j4.53805010471e-01
  -9.53513280915e-02+j4.45188924475e-01
  -9.16615756344e-02+j4.36877586849e-01
  -8.81790111432e-02+j4.28856101845e-01
  -8.48886201953e-02+j4.21110445960e-01
  -8.17767051261e-02+j4.13627414090e-01
  -7.88307508779e-02+j4.06394568347e-01
  -7.60393062781e-02+j3.99400189621e-01
  -7.33918787855e-02+j3.92633231911e-01
  -7.08788410156e-02+j3.86083279385e-01
  -6.84913475847e-02+j3.79740506105e-01
  -6.62212610099e-02+j3.73595638304e-01
  -6.40610855724e-02+j3.67639919119e-01
  -6.20039081918e-02+j3.61865075644e-01
  -6.00433454872e-02+j3.56263288185e-01
  -5.81734963041e-02+j3.50827161584e-01
  -5.63888990796e-02+j3.45549698480e-01
  -5.46844934968e-02+j3.40424274392e-01
  -5.30555859465e-02+j3.35444614502e-01
  -5.14978183765e-02+j3.30604772011e-01
  -5.00071401560e-02+j3.25899107983e-01
  -4.85797826304e-02+j3.21322272552e-01
  -4.72122360787e-02+j3.16869187411e-01
  -4.59012288202e-02+j3.12535029479e-01
  -4.46437082461e-02+j3.08315215677e-01
  -4.34368235779e-02+j3.04205388724e-01
  -4.22779101769e-02+j3.00201403879e-01
  -4.11644752473e-02+j2.96299316566e-01
  -4.00941847966e-02+j2.92495370821e-01
  -3.90648517270e-02+j2.88785988487e-01
  -3.80744249490e-02+j2.85167759131e-01
  -3.71209794197e-02+j2.81637430597e-01
  -3.62027070151e-02+j2.78191900180e-01
  -3.53179081613e-02+j2.74828206364e-01
  -3.44649841512e-02+j2.71543521074e-01
  -3.36424300849e-02+j2.68335142431e-01
  -3.28488283765e-02+j2.65200487952e-01
  -3.20828427768e-02+j2.62137088174e-01
  -3.13432128654e-02+j2.59142580673e-01
  -3.06287489702e-02+j2.56214704448e-01
  -2.99383274787e-02+j2.53351294645e-01
  -2.92708865048e-02+j2.50550277601e-01
  -2.86254218835e-02+j2.47809666185e-01
  -2.80009834629e-02+j2.45127555412e-01
  -2.73966716704e-02+j2.42502118320e-01
  -2.68116343299e-02+j2.39931602080e-01
  -2.62450637089e-02+j2.37414324345e-01
  -2.56961937774e-02+j2.34948669793e-01
  -2.51642976611e-02+j2.32533086879e-01
  -2.46486852733e-02+j2.30166084768e-01
  -2.41487011117e-02+j2.27846230434e-01
  -2.36637222075e-02+j2.25572145931e-01
  -2.31931562134e-02+j2.23342505808e-01
</dep>
<dep _net1.v acfrequency>
  +2.17390841211e-06-j1.39560178209e-12
  +2.15353283836e-06-j2.09474263736e-07
  +2.09463565468e-06-j4.07489317837e-07
  +2.00332078331e-06-j5.84586813186e-07
  +1.88808627245e-06-j7.34613407343e-07
  +1.75806587267e-06-j8.55031331000e-07
  +1.62158278255e-06-j9.46383501152e-07
  +1.48530934718e-06-j1.01132716150e-06
  +1.35401572337e-06-j1.05363541703e-06
  +1.23072113956e-06-j1.07740452704e-06
  +1.11703875457e-06-j1.08653778857e-06
  +1.01356055114e-06-j1.08447352087e-06
  +9.20198442770e-07-j1.07408657075e-06
  +8.36450639893e-07-j1.05769438374e-06
  +7.61592610825e-07-j1.03711584619e-06
  +6.94805095821e-07-j1.01374973312e-06
  +6.35254765118e-07-j9.88654166591e-07
  +5.82141614568e-07-j9.62618145235e-07
  +5.34724180379e-07-j9.36221899339e-07
  +4.92330617290e-07-j9.09885835555e-07
  +4.54361177657e-07-j8.83909218462e-07
  +4.20285754665e-07-j8.58500216646e-07
  +3.89638832535e-07-j8.33798966126e-07
  +3.62013293218e-07-j8.09895128369e-07
  +3.37053942586e-07-j7.86841178961e-07
  +3.14451243779e-07-j7.64662421814e-07
  +2.93935510935e-07-j7.43364510351e-07
  +2.75271674001e-07-j7.22939079880e-07
  +2.58254641594e-07-j7.03367953437e-07
  +2.42705242116e-07-j6.84626272464e-07
  +2.28466699307e-07-j6.66684818200e-07
  +2.15401588126e-07-j6.49511724484e-07
  +2.03389214471e-07-j6.33073733231e-07
  +1.92323364346e-07-j6.17337106550e-07
  +1.82110372371e-07-j6.02268281336e-07
  +1.72667464750e-07-j5.87834331027e-07
  +1.63921337279e-07-j5.74003283284e-07
  +1.55806934124e-07-j5.60744330364e-07
  +1.48266397898e-07-j5.48027959941e-07
  +1.41248165814e-07-j5.35826027282e-07
  +1.34706190404e-07-j5.24111784593e-07
  +1.28599266510e-07-j5.12859879412e-07
  +1.22890449051e-07-j5.02046331020e-07
  +1.17546548371e-07-j4.91648491592e-07
  +1.12537692026e-07-j4.81644997118e-07
  +1.07836943511e-07-j4.72015711866e-07
  +1.03419969899e-07-j4.62741669151e-07
  +9.92647515542e-08-j4.53805010471e-07
  +9.53513280915e-08-j4.45188924475e-07
  +9.16615756344e-08-j4.36877586849e-07
  +8.81790111432e-08-j4.28856101845e-07
  +8.48886201953e-08-j4.21110445960e-07
  +8.17767051261e-08-j4.13627414090e-07
  +7.88307508779e-08-j4.06394568347e-07
  +7.60393062781e-08-j3.99400189621e-07
  +7.33918787855e-08-j3.92633231911e-07
  +7.08788410156e-08-j3.86083279385e-07
  +6.84913475847e-08-j3.79740506105e-07
  +6.62212610099e-08-j3.73595638304e-07
  +6.40610855724e-08-j3.67639919119e-07
  +6.20039081918e-08-j3.61865075644e-07
  +6.00433454872e-08-j3.56263288185e-07
  +5.81734963041e-08-j3.50827161584e-07
  +5.63888990796e-08-j3.45549698480e-07
  +5.46844934968e-08-j3.40424274392e-07
  +5.30555859465e-08-j3.35444614502e-07
  +5.14978183765e-08-j3.30604772011e-07
  +5.00071401560e-08-j3.25899107983e-07
  +4.85797826304e-08-j3.21322272552e-07
  +4.72122360787e-08-j3.16869187411e-07
  +4.59012288202e-08-j3.12535029479e-07
  +4.46437082461e-08-j3.08315215677e-07
  +4.34368235779e-08-j3.04205388724e-07
  +4.22779101769e-08-j3.00201403879e-07
  +4.11644752473e-08-j2.96299316566e-07
  +4.00941847966e-08-j2.92495370821e-07
  +3.90648517270e-08-j2.88785988487e-07
  +3.80744249490e-08-j2.85167759131e-07
  +3.71209794197e-08-j2.81637430597e-07
  +3.62027070151e-08-j2.78191900180e-07
  +3.53179081613e-08-j2.74828206364e-07
  +3.44649841512e-08-j2.71543521074e-07
  +3.36424300849e-08-j2.68335142431e-07
  +3.28488283765e-08-j2.65200487952e-07
  +3.20828427768e-08-j2.62137088174e-07
  +3.13432128654e-08-j2.59142580673e-07
  +3.06287489702e-08-j2.56214704448e-07
  +2.99383274787e-08-j2.53351294645e-07
  +2.92708865048e-08-j2.50550277601e-07
  +2.86254218835e-08-j2.47809666185e-07
  +2.80009834629e-08-j2.45127555412e-07
  +2.73966716704e-08-j2.42502118320e-07
  +2.68116343299e-08-j2.39931602080e-07
  +2.62450637089e-08-j2.37414324345e-07
  +2.56961937774e-08-j2.34948669793e-07
  +2.51642976611e-08-j2.32533086879e-07
  +2.46486852733e-08-j2.30166084768e-07
  +2.41487011117e-08-j2.27846230434e-07
  +2.36637222075e-08-j2.25572145931e-07
  +2.31931562134e-08-j2.23342505808e-07
</dep>
<dep out.v acfrequency>
  +1.08695746692e+00-j6.97802984448e-07
  +1.07676964948e+00-j1.04737446080e-01
  +1.04732096929e+00-j2.03745270152e-01
  +1.00166339664e+00-j2.92294283473e-01
  +9.44045968355e-01-j3.67307805592e-01
  +8.79035573434e-01-j4.27516948047e-01
  +8.10793823649e-01-j4.73193170151e-01
  +7.42656901555e-01-j5.05665097743e-01
  +6.77009892710e-01-j5.26819288970e-01
  +6.15362415861e-01-j5.38703879627e-01
  +5.58521052842e-01-j5.43270524094e-01
  +5.06781795910e-01-j5.42238387147e-01
  +4.60100601683e-01-j5.37044896506e-01
  +4.18226574623e-01-j5.28848778413e-01
  +3.80797447802e-01-j5.18559478766e-01
  +3.47403590118e-01-j5.06876387185e-01
  +3.17628335441e-01-j4.94328566277e-01
  +2.91071680497e-01-j4.81310516545e-01
  +2.67362892276e-01-j4.68112354002e-01
  +2.46166047141e-01-j4.54944282606e-01
  +2.27181270370e-01-j4.41955935095e-01
  +2.10143507761e-01-j4.29251396073e-01
  +1.94820000726e-01-j4.16900733762e-01
  +1.81007189629e-01-j4.04948779027e-01
  +1.68527476874e-01-j3.93421769742e-01
  +1.57226093566e-01-j3.82332357901e-01
  +1.46968196371e-01-j3.71683370222e-01
  +1.37636249908e-01-j3.61470624349e-01
  +1.29127708179e-01-j3.51685031771e-01
  +1.21352985116e-01-j3.42314163171e-01
  +1.14233692354e-01-j3.33343409127e-01
  +1.07701117166e-01-j3.24756836510e-01
  +1.01694912319e-01-j3.16537816226e-01
  +9.61619706582e-02-j3.08669479281e-01
  +9.10554593509e-02-j3.01135044071e-01
  +8.63339913762e-02-j2.93918047265e-01
  +8.19609145217e-02-j2.87002502647e-01
  +7.79037007723e-02-j2.80373006299e-01
  +7.41334213484e-02-j2.74014802012e-01
  +7.06242947795e-02-j2.67913817380e-01
  +6.73532972613e-02-j2.62056678464e-01
  +6.42998261539e-02-j2.56430708996e-01
  +6.14454088610e-02-j2.51023918580e-01
  +5.87734505055e-02-j2.45824983269e-01
  +5.62690148197e-02-j2.40823221026e-01
  +5.39186335107e-02-j2.36008563956e-01
  +5.17101400793e-02-j2.31371528688e-01
  +4.96325246743e-02-j2.26903185943e-01
  +4.76758070727e-02-j2.22595130021e-01
  +4.58309253096e-02-j2.18439448741e-01
  +4.40896378401e-02-j2.14428694207e-01
  +4.24444374306e-02-j2.10555854645e-01
  +4.08884752281e-02-j2.06814327486e-01
  +3.94154936851e-02-j2.03197893766e-01
  +3.80197671980e-02-j1.99700693911e-01
  +3.66960494806e-02-j1.96317204905e-01
  +3.54395268261e-02-j1.93042218817e-01
  +3.42457765294e-02-j1.89870822663e-01
  +3.31107298369e-02-j1.86798379546e-01
  +3.20306388778e-02-j1.83820511019e-01
  +3.10020471018e-02-j1.80933080620e-01
  +3.00217628086e-02-j1.78132178487e-01
  +2.90868354123e-02-j1.75414107033e-01
  +2.81945341232e-02-j1.72775367564e-01
  +2.73423287751e-02-j1.70212647833e-01
  +2.65278725566e-02-j1.67722810418e-01
  +2.57489864350e-02-j1.65302881913e-01
  +2.50036450887e-02-j1.62950042840e-01
  +2.42899641849e-02-j1.60661618260e-01
  +2.36061888577e-02-j1.58435069009e-01
  +2.29506832620e-02-j1.56267983542e-01
  +2.23219210886e-02-j1.54158070311e-01
  +2.17184769442e-02-j1.52103150670e-01
  +2.11390185053e-02-j1.50101152242e-01
  +2.05822993704e-02-j1.48150102732e-01
  +2.00471525396e-02-j1.46248124153e-01
  +1.95324844608e-02-j1.44393427423e-01
  +1.90372695862e-02-j1.42584307317e-01
  +1.85605453913e-02-j1.40819137754e-01
  +1.81014078116e-02-j1.39096367378e-01
  +1.76590070575e-02-j1.37414515424e-01
  +1.72325437731e-02-j1.35772167852e-01
  +1.68212655061e-02-j1.34167973718e-01
  +1.64244634615e-02-j1.32600641777e-01
  +1.60414695127e-02-j1.31068937293e-01
  +1.56716534475e-02-j1.29571679050e-01
  +1.53144204282e-02-j1.28107736546e-01
  +1.49692086468e-02-j1.26676027349e-01
  +1.46354871587e-02-j1.25275514626e-01
  +1.43127538799e-02-j1.23905204807e-01
  +1.40005337329e-02-j1.22564145398e-01
  +1.36983769302e-02-j1.21251422913e-01
  +1.34058573824e-02-j1.19966160937e-01
  +1.31225712221e-02-j1.18707518294e-01
  +1.28481354330e-02-j1.17474687319e-01
  +1.25821865770e-02-j1.16266892239e-01
  +1.23243796097e-02-j1.15083387633e-01
  +1.20743867789e-02-j1.13923456986e-01
  +1.18318965993e-02-j1.12786411324e-01
  +1.15966128965e-02-j1.11671587918e-01
</dep>
<dep _net0.v acfrequency>
  +2.00000000000e+00
  +2.00000000000e+00
  +2.00000000000e+00
  +2.00000000000e+00
  +2.00000000000e+00
  +2.00000000000e+00
  +2.00000000000e+00
  +2.00000000000e+00
  +2.00000000000e+00
  +2.00000000000e+00
  +2.00000000000e+00
  +2.00000000000e+00
  +2.00000000000e+00
  +2.00000000000e+00
  +2.00000000000e+00
  +2.00000000000e+00
  +2.00000000000e+00
  +2.00000000000e+00
  +2.00000000000e+00
  +2.00000000000e+00
  +2.00000000000e+00
  +2.00000000000e+00
  +2.00000000000e+00
  +2.00000000000e+00
  +2.00000000000e+00
  +2.00000000000e+00
  +2.00000000000e+00
  +2.00000000000e+00
  +2.00000000000e+00
  +2.00000000000e+00
  +2.00000000000e+00
  +2.00000000000e+00
  +2.00000000000e+00
  +2.00000000000e+00
  +2.00000000000e+00
  +2.00000000000e+00
  +2.00000000000e+00
  +2.00000000000e+00
  +2.00000000000e+00
  +2.00000000000e+00
  +2.00000000000e+00
  +2.00000000000e+00
  +2.00000000000e+00
  +2.00000000000e+00
  +2.00000000000e+00
  +2.00000000000e+00
  +2.00000000000e+00
  +2.00000000000e+00
  +2.00000000000e+00
  +2.00000000000e+00
  +2.00000000000e+00
  +2.00000000000e+00
  +2.00000000000e+00
  +2.00000000000e+00
  +2.00000000000e+00
  +2.00000000000e+00
  +2.00000000000e+00
  +2.00000000000e+00
  +2.00000000000e+00
  +2.00000000000e+00
  +2.00000000000e+00
  +2.00000000000e+00
  +2.00000000000e+00
  +2.00000000000e+00
  +2.00000000000e+00
  +2.00000000000e+00
  +2.00000000000e+00
  +2.00000000000e+00
  +2.00000000000e+00
  +2.00000000000e+00
  +2.00000000000e+00
  +2.00000000000e+00
  +2.00000000000e+00
  +2.00000000000e+00
  +2.00000000000e+00
  +2.00000000000e+00
  +2.00000000000e+00
  +2.00000000000e+00
  +2.00000000000e+00
  +2.00000000000e+00
